! Patch antenna |S11| — matched inset, uniform-mesh rfx run
# Hz S MA R 50
1.500000e+09 4.262087e-01 174.7650
1.520000e+09 4.261456e-01 174.6305
1.540000e+09 4.260758e-01 174.4936
1.560000e+09 4.260060e-01 174.3546
1.580000e+09 4.259281e-01 174.2133
1.600000e+09 4.258496e-01 174.0695
1.620000e+09 4.257611e-01 173.9226
1.640000e+09 4.256664e-01 173.7727
1.660000e+09 4.255666e-01 173.6196
1.680000e+09 4.254635e-01 173.4627
1.700000e+09 4.253473e-01 173.3015
1.720000e+09 4.252252e-01 173.1360
1.740000e+09 4.250983e-01 172.9660
1.760000e+09 4.249573e-01 172.7901
1.780000e+09 4.248036e-01 172.6084
1.800000e+09 4.246379e-01 172.4207
1.820000e+09 4.244665e-01 172.2262
1.840000e+09 4.242874e-01 172.0220
1.860000e+09 4.240925e-01 171.8071
1.880000e+09 4.238624e-01 171.5806
1.900000e+09 4.235998e-01 171.3426
1.920000e+09 4.233039e-01 171.0913
1.940000e+09 4.229689e-01 170.8243
1.960000e+09 4.225890e-01 170.5401
1.980000e+09 4.221498e-01 170.2356
2.000000e+09 4.216448e-01 169.9073
2.020000e+09 4.210490e-01 169.5511
2.040000e+09 4.203425e-01 169.1633
2.060000e+09 4.194972e-01 168.7375
2.080000e+09 4.184729e-01 168.2660
2.100000e+09 4.172110e-01 167.7400
2.120000e+09 4.156303e-01 167.1486
2.140000e+09 4.136283e-01 166.4774
2.160000e+09 4.110372e-01 165.7072
2.180000e+09 4.076067e-01 164.8155
2.200000e+09 4.029622e-01 163.7756
2.220000e+09 3.965226e-01 162.5565
2.240000e+09 3.873470e-01 161.1334
2.260000e+09 3.739215e-01 159.5228
2.280000e+09 3.540087e-01 157.8855
2.300000e+09 3.249605e-01 156.8160
2.320000e+09 2.866780e-01 158.0463
2.340000e+09 2.509284e-01 164.8195
2.360000e+09 2.448990e-01 176.7882
2.380000e+09 2.738060e-01 -174.5485
2.400000e+09 3.115920e-01 -171.9532
2.420000e+09 3.422776e-01 -172.3868
2.440000e+09 3.639521e-01 -173.7471
2.460000e+09 3.788094e-01 -175.2315
2.480000e+09 3.891018e-01 -176.5962
2.500000e+09 3.963928e-01 -177.7906
2.520000e+09 4.016901e-01 -178.8233
2.540000e+09 4.056299e-01 -179.7169
2.560000e+09 4.086254e-01 179.5049
2.580000e+09 4.109576e-01 178.8210
2.600000e+09 4.127983e-01 178.2129
2.620000e+09 4.142748e-01 177.6676
2.640000e+09 4.154725e-01 177.1745
2.660000e+09 4.164624e-01 176.7245
2.680000e+09 4.172872e-01 176.3099
2.700000e+09 4.179754e-01 175.9243
2.720000e+09 4.185539e-01 175.5646
2.740000e+09 4.190524e-01 175.2264
2.760000e+09 4.194801e-01 174.9056
2.780000e+09 4.198456e-01 174.5991
2.800000e+09 4.201519e-01 174.3064
2.820000e+09 4.204274e-01 174.0248
2.840000e+09 4.206690e-01 173.7512
2.860000e+09 4.208656e-01 173.4839
2.880000e+09 4.210256e-01 173.2238
2.900000e+09 4.211675e-01 172.9690
2.920000e+09 4.212904e-01 172.7156
2.940000e+09 4.213627e-01 172.4631
2.960000e+09 4.213929e-01 172.2142
2.980000e+09 4.213957e-01 171.9666
3.000000e+09 4.213252e-01 171.7155
3.020000e+09 4.211133e-01 171.4696
3.040000e+09 4.207959e-01 171.2505
3.060000e+09 4.206000e-01 171.0659
3.080000e+09 4.207214e-01 170.8882
3.100000e+09 4.210920e-01 170.6788
3.120000e+09 4.214545e-01 170.4264
3.140000e+09 4.216560e-01 170.1495
3.160000e+09 4.217302e-01 169.8670
3.180000e+09 4.217636e-01 169.5789
3.200000e+09 4.217589e-01 169.2791
3.220000e+09 4.216958e-01 168.9671
3.240000e+09 4.215865e-01 168.6434
3.260000e+09 4.214495e-01 168.3049
3.280000e+09 4.212711e-01 167.9451
3.300000e+09 4.210234e-01 167.5613
3.320000e+09 4.207063e-01 167.1507
3.340000e+09 4.203080e-01 166.7070
3.360000e+09 4.198031e-01 166.2215
3.380000e+09 4.191355e-01 165.6851
3.400000e+09 4.182646e-01 165.0871
3.420000e+09 4.171028e-01 164.4118
3.440000e+09 4.155406e-01 163.6381
3.460000e+09 4.133730e-01 162.7358
3.480000e+09 4.102682e-01 161.6666
3.500000e+09 4.056796e-01 160.3821
