! rfx Touchstone export
! 1-port, 101 frequencies
! rfx gallery case patch_antenna
! tier E4; quick_smoke=False
# GHz S RI R 50
1.500000000e+00 8.221647739e-01 -5.488063097e-01
1.520000000e+00 8.176515102e-01 -5.549858212e-01
1.540000000e+00 8.130881786e-01 -5.611420274e-01
1.560000000e+00 8.084506989e-01 -5.672651529e-01
1.580000000e+00 8.037501574e-01 -5.733193159e-01
1.600000000e+00 7.990099192e-01 -5.793055892e-01
1.620000000e+00 7.942531109e-01 -5.852472186e-01
1.640000000e+00 7.894690037e-01 -5.911667943e-01
1.660000000e+00 7.846185565e-01 -5.970605612e-01
1.680000000e+00 7.796974778e-01 -6.029138565e-01
1.700000000e+00 7.747257948e-01 -6.086869240e-01
1.720000000e+00 7.697225809e-01 -6.143953204e-01
1.740000000e+00 7.647135854e-01 -6.200725436e-01
1.760000000e+00 7.596605420e-01 -6.257278919e-01
1.780000000e+00 7.545432448e-01 -6.313551068e-01
1.800000000e+00 7.493481636e-01 -6.369184852e-01
1.820000000e+00 7.441265583e-01 -6.423953176e-01
1.840000000e+00 7.389019132e-01 -6.478112936e-01
1.860000000e+00 7.336413860e-01 -6.532151699e-01
1.880000000e+00 7.283424735e-01 -6.585959196e-01
1.900000000e+00 7.229675651e-01 -6.639315486e-01
1.920000000e+00 7.175278068e-01 -6.691893339e-01
1.940000000e+00 7.120638490e-01 -6.743717790e-01
1.960000000e+00 7.066134214e-01 -6.794980168e-01
1.980000000e+00 7.011411190e-01 -6.846078634e-01
2.000000000e+00 6.955975890e-01 -6.897030473e-01
2.020000000e+00 6.899790168e-01 -6.947328448e-01
2.040000000e+00 6.843174696e-01 -6.996706724e-01
2.060000000e+00 6.786602139e-01 -7.045325041e-01
2.080000000e+00 6.730031371e-01 -7.093658447e-01
2.100000000e+00 6.673083901e-01 -7.141914964e-01
2.120000000e+00 6.615355611e-01 -7.189815044e-01
2.140000000e+00 6.556977034e-01 -7.236939073e-01
2.160000000e+00 6.498377919e-01 -7.283046842e-01
2.180000000e+00 6.439977884e-01 -7.328449488e-01
2.200000000e+00 6.381508708e-01 -7.373799682e-01
2.220000000e+00 6.322447658e-01 -7.419137359e-01
2.240000000e+00 6.262581944e-01 -7.463936806e-01
2.260000000e+00 6.202112436e-01 -7.507598996e-01
2.280000000e+00 6.141728163e-01 -7.550318837e-01
2.300000000e+00 6.081705093e-01 -7.592697740e-01
2.320000000e+00 6.021507382e-01 -7.635095119e-01
2.340000000e+00 5.960450172e-01 -7.677361965e-01
2.360000000e+00 5.898398161e-01 -7.718814015e-01
2.380000000e+00 5.836132169e-01 -7.758997083e-01
2.400000000e+00 5.774280429e-01 -7.798317075e-01
2.420000000e+00 5.712743402e-01 -7.837578058e-01
2.440000000e+00 5.650689006e-01 -7.877074480e-01
2.460000000e+00 5.587537289e-01 -7.916212082e-01
2.480000000e+00 5.523635149e-01 -7.954100966e-01
2.500000000e+00 5.459807515e-01 -7.990661860e-01
2.520000000e+00 5.396575928e-01 -8.026748896e-01
2.540000000e+00 5.333563685e-01 -8.063076138e-01
2.560000000e+00 5.269494057e-01 -8.099763989e-01
2.580000000e+00 5.204003453e-01 -8.135607243e-01
2.600000000e+00 5.138015151e-01 -8.169733882e-01
2.620000000e+00 5.072705150e-01 -8.202434778e-01
2.640000000e+00 5.008234978e-01 -8.235178590e-01
2.660000000e+00 4.943461418e-01 -8.268777728e-01
2.680000000e+00 4.877181351e-01 -8.302467465e-01
2.700000000e+00 4.809074402e-01 -8.334665298e-01
2.720000000e+00 4.741041660e-01 -8.364670277e-01
2.740000000e+00 4.674097598e-01 -8.393648863e-01
2.760000000e+00 4.608004689e-01 -8.423410058e-01
2.780000000e+00 4.540578127e-01 -8.454431891e-01
2.800000000e+00 4.470491111e-01 -8.484899998e-01
2.820000000e+00 4.398576915e-01 -8.512656093e-01
2.840000000e+00 4.327353835e-01 -8.537623286e-01
2.860000000e+00 4.257985651e-01 -8.562344909e-01
2.880000000e+00 4.188340604e-01 -8.589122295e-01
2.900000000e+00 4.114810824e-01 -8.616990447e-01
2.920000000e+00 4.036370218e-01 -8.642092943e-01
2.940000000e+00 3.955940306e-01 -8.661399484e-01
2.960000000e+00 3.877412975e-01 -8.676355481e-01
2.980000000e+00 3.800030649e-01 -8.691535592e-01
3.000000000e+00 3.717294335e-01 -8.707934618e-01
3.020000000e+00 3.622902930e-01 -8.717464805e-01
3.040000000e+00 3.520802259e-01 -8.705676198e-01
3.060000000e+00 3.428494632e-01 -8.663523793e-01
3.080000000e+00 3.369432688e-01 -8.598403335e-01
3.100000000e+00 3.357146978e-01 -8.535618782e-01
3.120000000e+00 3.383900225e-01 -8.505701423e-01
3.140000000e+00 3.421876729e-01 -8.527051806e-01
3.160000000e+00 3.437643051e-01 -8.594183922e-01
3.180000000e+00 3.411817551e-01 -8.680855632e-01
3.200000000e+00 3.348713815e-01 -8.758196235e-01
3.220000000e+00 3.268820941e-01 -8.811832070e-01
3.240000000e+00 3.191146851e-01 -8.846527338e-01
3.260000000e+00 3.121380508e-01 -8.875427246e-01
3.280000000e+00 3.053770959e-01 -8.906816840e-01
3.300000000e+00 2.981099188e-01 -8.938744068e-01
3.320000000e+00 2.903494537e-01 -8.964878321e-01
3.340000000e+00 2.826726139e-01 -8.982799053e-01
3.360000000e+00 2.755494416e-01 -8.996722698e-01
3.380000000e+00 2.688836753e-01 -9.012504220e-01
3.400000000e+00 2.621349990e-01 -9.031755924e-01
3.420000000e+00 2.549677193e-01 -9.050688148e-01
3.440000000e+00 2.475747615e-01 -9.064998031e-01
3.460000000e+00 2.404252291e-01 -9.074574113e-01
3.480000000e+00 2.337108552e-01 -9.083497524e-01
3.500000000e+00 2.271849066e-01 -9.095312357e-01
