! Patch antenna |S11| — matched inset, uniform-mesh rfx run
# Hz S MA R 50
1.500000e+09 4.262088e-01 174.7650
1.520000e+09 4.261457e-01 174.6303
1.540000e+09 4.260758e-01 174.4936
1.560000e+09 4.260056e-01 174.3546
1.580000e+09 4.259282e-01 174.2133
1.600000e+09 4.258496e-01 174.0694
1.620000e+09 4.257611e-01 173.9226
1.640000e+09 4.256662e-01 173.7727
1.660000e+09 4.255667e-01 173.6196
1.680000e+09 4.254633e-01 173.4627
1.700000e+09 4.253472e-01 173.3014
1.720000e+09 4.252249e-01 173.1360
1.740000e+09 4.250977e-01 172.9660
1.760000e+09 4.249569e-01 172.7902
1.780000e+09 4.248032e-01 172.6083
1.800000e+09 4.246385e-01 172.4207
1.820000e+09 4.244665e-01 172.2262
1.840000e+09 4.242879e-01 172.0221
1.860000e+09 4.240917e-01 171.8070
1.880000e+09 4.238619e-01 171.5806
1.900000e+09 4.236002e-01 171.3425
1.920000e+09 4.233043e-01 171.0912
1.940000e+09 4.229693e-01 170.8243
1.960000e+09 4.225884e-01 170.5401
1.980000e+09 4.221495e-01 170.2356
2.000000e+09 4.216447e-01 169.9073
2.020000e+09 4.210492e-01 169.5512
2.040000e+09 4.203418e-01 169.1633
2.060000e+09 4.194976e-01 168.7374
2.080000e+09 4.184724e-01 168.2660
2.100000e+09 4.172120e-01 167.7401
2.120000e+09 4.156302e-01 167.1487
2.140000e+09 4.136291e-01 166.4775
2.160000e+09 4.110370e-01 165.7073
2.180000e+09 4.076063e-01 164.8156
2.200000e+09 4.029613e-01 163.7756
2.220000e+09 3.965213e-01 162.5566
2.240000e+09 3.873453e-01 161.1334
2.260000e+09 3.739211e-01 159.5231
2.280000e+09 3.540074e-01 157.8859
2.300000e+09 3.249593e-01 156.8165
2.320000e+09 2.866801e-01 158.0472
2.340000e+09 2.509333e-01 164.8201
2.360000e+09 2.449037e-01 176.7880
2.380000e+09 2.738103e-01 -174.5494
2.400000e+09 3.115918e-01 -171.9539
2.420000e+09 3.422767e-01 -172.3873
2.440000e+09 3.639513e-01 -173.7475
2.460000e+09 3.788092e-01 -175.2317
2.480000e+09 3.891016e-01 -176.5964
2.500000e+09 3.963917e-01 -177.7907
2.520000e+09 4.016891e-01 -178.8234
2.540000e+09 4.056287e-01 -179.7170
2.560000e+09 4.086246e-01 179.5048
2.580000e+09 4.109570e-01 178.8209
2.600000e+09 4.127976e-01 178.2128
2.620000e+09 4.142742e-01 177.6676
2.640000e+09 4.154722e-01 177.1745
2.660000e+09 4.164616e-01 176.7245
2.680000e+09 4.172869e-01 176.3099
2.700000e+09 4.179746e-01 175.9243
2.720000e+09 4.185547e-01 175.5646
2.740000e+09 4.190521e-01 175.2265
2.760000e+09 4.194802e-01 174.9055
2.780000e+09 4.198459e-01 174.5991
2.800000e+09 4.201524e-01 174.3064
2.820000e+09 4.204270e-01 174.0248
2.840000e+09 4.206690e-01 173.7511
2.860000e+09 4.208657e-01 173.4839
2.880000e+09 4.210243e-01 173.2238
2.900000e+09 4.211686e-01 172.9690
2.920000e+09 4.212903e-01 172.7156
2.940000e+09 4.213618e-01 172.4631
2.960000e+09 4.213929e-01 172.2142
2.980000e+09 4.213943e-01 171.9666
3.000000e+09 4.213241e-01 171.7154
3.020000e+09 4.211135e-01 171.4696
3.040000e+09 4.207962e-01 171.2505
3.060000e+09 4.205994e-01 171.0659
3.080000e+09 4.207214e-01 170.8882
3.100000e+09 4.210906e-01 170.6787
3.120000e+09 4.214529e-01 170.4263
3.140000e+09 4.216561e-01 170.1494
3.160000e+09 4.217300e-01 169.8669
3.180000e+09 4.217626e-01 169.5790
3.200000e+09 4.217588e-01 169.2791
3.220000e+09 4.216962e-01 168.9670
3.240000e+09 4.215856e-01 168.6434
3.260000e+09 4.214493e-01 168.3049
3.280000e+09 4.212700e-01 167.9451
3.300000e+09 4.210232e-01 167.5612
3.320000e+09 4.207071e-01 167.1507
3.340000e+09 4.203068e-01 166.7070
3.360000e+09 4.198020e-01 166.2215
3.380000e+09 4.191362e-01 165.6851
3.400000e+09 4.182635e-01 165.0870
3.420000e+09 4.171039e-01 164.4119
3.440000e+09 4.155405e-01 163.6382
3.460000e+09 4.133722e-01 162.7359
3.480000e+09 4.102673e-01 161.6667
3.500000e+09 4.056786e-01 160.3821
