! rfx Touchstone export
! 1-port, 31 frequencies
! rfx gallery case patch_antenna
! tier E4; quick_smoke=True
# GHz S RI R 50
1.500000000e+00 8.221806288e-01 -5.490897894e-01
1.566666603e+00 8.067604899e-01 -5.695183277e-01
1.633333325e+00 7.908301950e-01 -5.894103646e-01
1.700000048e+00 7.744295001e-01 -6.087498665e-01
1.766666770e+00 7.575984001e-01 -6.275441647e-01
1.833333373e+00 7.403640747e-01 -6.458024383e-01
1.899999857e+00 7.227548957e-01 -6.635409594e-01
1.966666579e+00 7.047774792e-01 -6.807827950e-01
2.033333302e+00 6.864286661e-01 -6.975454092e-01
2.099999905e+00 6.676899791e-01 -7.138405442e-01
2.166666746e+00 6.485328078e-01 -7.296676040e-01
2.233333349e+00 6.289213896e-01 -7.450013161e-01
2.299999952e+00 6.088266969e-01 -7.597984672e-01
2.366666794e+00 5.882244110e-01 -7.739941478e-01
2.433333158e+00 5.671204329e-01 -7.875008583e-01
2.500000238e+00 5.455379486e-01 -8.002263308e-01
2.566666842e+00 5.235453248e-01 -8.120719194e-01
2.633333206e+00 5.012440681e-01 -8.229523897e-01
2.700000048e+00 4.787623882e-01 -8.328116536e-01
2.766666651e+00 4.562623799e-01 -8.416320086e-01
2.833333492e+00 4.339064360e-01 -8.494423628e-01
2.900000095e+00 4.118585289e-01 -8.563250303e-01
2.966666698e+00 3.902544081e-01 -8.624154329e-01
3.033333302e+00 3.691792786e-01 -8.678947091e-01
3.099999905e+00 3.486688137e-01 -8.729673028e-01
3.166666746e+00 3.286812603e-01 -8.778518438e-01
3.233333588e+00 3.090954423e-01 -8.827435970e-01
3.299999952e+00 2.897288501e-01 -8.877983093e-01
3.366666794e+00 2.703430057e-01 -8.930979371e-01
3.433333158e+00 2.506561577e-01 -8.986389041e-01
3.500000000e+00 2.304076105e-01 -9.043060541e-01
