! rfx Touchstone export
! 2-port, 170 frequencies
! rfx gallery case multilayer_fresnel
! tier E5; quick_smoke=False
# GHz S RI R 50
3.032065341e+00 -5.677858697e-01 -1.404499239e-01 1.947090122e-01 -7.871348223e-01 1.947090122e-01 -7.871348223e-01 -5.677858697e-01 -1.404499239e-01
3.084342330e+00 -5.724672997e-01 -1.306854667e-01 1.800202324e-01 -7.885780945e-01 1.800202324e-01 -7.885780945e-01 -5.724672997e-01 -1.306854667e-01
3.136619318e+00 -5.767639876e-01 -1.207986637e-01 1.654360458e-01 -7.898891475e-01 1.654360458e-01 -7.898891475e-01 -5.767639876e-01 -1.207986637e-01
3.188896307e+00 -5.806797585e-01 -1.108021771e-01 1.509489735e-01 -7.910766354e-01 1.509489735e-01 -7.910766354e-01 -5.806797585e-01 -1.108021771e-01
3.241173295e+00 -5.842186014e-01 -1.007080879e-01 1.365511728e-01 -7.921482455e-01 1.365511728e-01 -7.921482455e-01 -5.842186014e-01 -1.007080879e-01
3.293450284e+00 -5.873845875e-01 -9.052791372e-02 1.222344929e-01 -7.931107017e-01 1.222344929e-01 -7.931107017e-01 -5.873845875e-01 -9.052791372e-02
3.345727273e+00 -5.901817924e-01 -8.027263259e-02 1.079905289e-01 -7.939697737e-01 1.079905289e-01 -7.939697737e-01 -5.901817924e-01 -8.027263259e-02
3.398004261e+00 -5.926142227e-01 -6.995271216e-02 9.381067329e-02 -7.947302901e-01 9.381067329e-02 -7.947302901e-01 -5.926142227e-01 -6.995271216e-02
3.450281250e+00 -5.946857471e-01 -5.957814363e-02 7.968616460e-02 -7.953961543e-01 7.968616460e-02 -7.953961543e-01 -5.946857471e-01 -5.957814363e-02
3.502558239e+00 -5.964000336e-01 -4.915848045e-02 6.560813454e-02 -7.959703653e-01 6.560813454e-02 -7.959703653e-01 -5.964000336e-01 -4.915848045e-02
3.554835227e+00 -5.977604920e-01 -3.870288125e-02 5.156765169e-02 -7.964550404e-01 5.156765169e-02 -7.964550404e-01 -5.977604920e-01 -3.870288125e-02
3.607112216e+00 -5.987702224e-01 -2.822015655e-02 3.755576273e-02 -7.968514406e-01 3.755576273e-02 -7.968514406e-01 -5.987702224e-01 -2.822015655e-02
3.659389205e+00 -5.994319705e-01 -1.771881888e-02 2.356353069e-02 -7.971599986e-01 2.356353069e-02 -7.971599986e-01 -5.994319705e-01 -1.771881888e-02
3.711666193e+00 -5.997480902e-01 -7.207135796e-03 9.582070442e-03 -7.973803478e-01 9.582070442e-03 -7.973803478e-01 -5.997480902e-01 -7.207135796e-03
3.763943182e+00 -5.997205120e-01 3.306814716e-03 -4.397418839e-03 -7.975113527e-01 -4.397418839e-03 -7.975113527e-01 -5.997205120e-01 3.306814716e-03
3.816220170e+00 -5.993507197e-01 1.381508679e-02 -1.838362391e-02 -7.975511405e-01 -1.838362391e-02 -7.975511405e-01 -5.993507197e-01 1.381508679e-02
3.868497159e+00 -5.986397339e-01 2.430980778e-02 -3.238509052e-02 -7.974971316e-01 -3.238509052e-02 -7.974971316e-01 -5.986397339e-01 2.430980778e-02
3.920774148e+00 -5.975881024e-01 3.478311838e-02 -4.641019904e-02 -7.973460711e-01 -4.641019904e-02 -7.973460711e-01 -5.975881024e-01 3.478311838e-02
3.973051136e+00 -5.961958992e-01 4.522711218e-02 -6.046714257e-02 -7.970940593e-01 -6.046714257e-02 -7.970940593e-01 -5.961958992e-01 4.522711218e-02
4.025328125e+00 -5.944627296e-01 5.563377521e-02 -7.456390721e-02 -7.967365803e-01 -7.456390721e-02 -7.967365803e-01 -5.944627296e-01 5.563377521e-02
4.077605114e+00 -5.923877432e-01 6.599492585e-02 -8.870825436e-02 -7.962685300e-01 -8.870825436e-02 -7.962685300e-01 -5.923877432e-01 6.599492585e-02
4.129882102e+00 -5.899696539e-01 7.630215568e-02 -1.029077047e-01 -7.956842420e-01 -1.029077047e-01 -7.956842420e-01 -5.899696539e-01 7.630215568e-02
4.182159091e+00 -5.872067675e-01 8.654677161e-02 -1.171695234e-01 -7.949775107e-01 -1.171695234e-01 -7.949775107e-01 -5.872067675e-01 8.654677161e-02
4.234436080e+00 -5.840970153e-01 9.671973984e-02 -1.315007066e-01 -7.941416133e-01 -1.315007066e-01 -7.941416133e-01 -5.840970153e-01 9.671973984e-02
4.286713068e+00 -5.806379955e-01 1.068116320e-01 -1.459079684e-01 -7.931693273e-01 -1.459079684e-01 -7.931693273e-01 -5.806379955e-01 1.068116320e-01
4.338990057e+00 -5.768270204e-01 1.168125739e-01 -1.603977278e-01 -7.920529472e-01 -1.603977278e-01 -7.920529472e-01 -5.768270204e-01 1.168125739e-01
4.391267045e+00 -5.726611703e-01 1.267121975e-01 -1.749760962e-01 -7.907842966e-01 -1.749760962e-01 -7.907842966e-01 -5.726611703e-01 1.267121975e-01
4.443544034e+00 -5.681373535e-01 1.364995964e-01 -1.896488632e-01 -7.893547385e-01 -1.896488632e-01 -7.893547385e-01 -5.681373535e-01 1.364995964e-01
4.495821023e+00 -5.632523725e-01 1.461632849e-01 -2.044214828e-01 -7.877551824e-01 -2.044214828e-01 -7.877551824e-01 -5.632523725e-01 1.461632849e-01
4.548098011e+00 -5.580029951e-01 1.556911619e-01 -2.192990566e-01 -7.859760883e-01 -2.192990566e-01 -7.859760883e-01 -5.580029951e-01 1.556911619e-01
4.600375000e+00 -5.523860317e-01 1.650704790e-01 -2.342863161e-01 -7.840074689e-01 -2.342863161e-01 -7.840074689e-01 -5.523860317e-01 1.650704790e-01
4.652651989e+00 -5.463984168e-01 1.742878148e-01 -2.493876028e-01 -7.818388883e-01 -2.493876028e-01 -7.818388883e-01 -5.463984168e-01 1.742878148e-01
4.704928977e+00 -5.400372960e-01 1.833290533e-01 -2.646068447e-01 -7.794594600e-01 -2.646068447e-01 -7.794594600e-01 -5.400372960e-01 1.833290533e-01
4.757205966e+00 -5.333001167e-01 1.921793699e-01 -2.799475304e-01 -7.768578423e-01 -2.799475304e-01 -7.768578423e-01 -5.333001167e-01 1.921793699e-01
4.809482955e+00 -5.261847232e-01 2.008232227e-01 -2.954126801e-01 -7.740222330e-01 -2.954126801e-01 -7.740222330e-01 -5.261847232e-01 2.008232227e-01
4.861759943e+00 -5.186894549e-01 2.092443514e-01 -3.110048117e-01 -7.709403630e-01 -3.110048117e-01 -7.709403630e-01 -5.186894549e-01 2.092443514e-01
4.914036932e+00 -5.108132474e-01 2.174257828e-01 -3.267259041e-01 -7.675994906e-01 -3.267259041e-01 -7.675994906e-01 -5.108132474e-01 2.174257828e-01
4.966313920e+00 -5.025557371e-01 2.253498448e-01 -3.425773560e-01 -7.639863956e-01 -3.425773560e-01 -7.639863956e-01 -5.025557371e-01 2.253498448e-01
5.018590909e+00 -4.939173656e-01 2.329981878e-01 -3.585599399e-01 -7.600873751e-01 -3.585599399e-01 -7.600873751e-01 -4.939173656e-01 2.329981878e-01
5.070867898e+00 -4.848994877e-01 2.403518148e-01 -3.746737522e-01 -7.558882411e-01 -3.746737522e-01 -7.558882411e-01 -4.848994877e-01 2.403518148e-01
5.123144886e+00 -4.755044777e-01 2.473911200e-01 -3.909181588e-01 -7.513743214e-01 -3.909181588e-01 -7.513743214e-01 -4.755044777e-01 2.473911200e-01
5.175421875e+00 -4.657358367e-01 2.540959370e-01 -4.072917364e-01 -7.465304636e-01 -4.072917364e-01 -7.465304636e-01 -4.657358367e-01 2.540959370e-01
5.227698864e+00 -4.555982978e-01 2.604455949e-01 -4.237922093e-01 -7.413410438e-01 -4.237922093e-01 -7.413410438e-01 -4.555982978e-01 2.604455949e-01
5.279975852e+00 -4.450979302e-01 2.664189858e-01 -4.404163831e-01 -7.357899811e-01 -4.404163831e-01 -7.357899811e-01 -4.450979302e-01 2.664189858e-01
5.332252841e+00 -4.342422387e-01 2.719946398e-01 -4.571600739e-01 -7.298607579e-01 -4.571600739e-01 -7.298607579e-01 -4.342422387e-01 2.719946398e-01
5.384529830e+00 -4.230402604e-01 2.771508107e-01 -4.740180352e-01 -7.235364477e-01 -4.740180352e-01 -7.235364477e-01 -4.230402604e-01 2.771508107e-01
5.436806818e+00 -4.115026551e-01 2.818655710e-01 -4.909838819e-01 -7.167997508e-01 -4.909838819e-01 -7.167997508e-01 -4.115026551e-01 2.818655710e-01
5.489083807e+00 -3.996417898e-01 2.861169158e-01 -5.080500129e-01 -7.096330390e-01 -5.080500129e-01 -7.096330390e-01 -3.996417898e-01 2.861169158e-01
5.541360795e+00 -3.874718155e-01 2.898828765e-01 -5.252075323e-01 -7.020184100e-01 -5.252075323e-01 -7.020184100e-01 -3.874718155e-01 2.898828765e-01
5.593637784e+00 -3.750087354e-01 2.931416425e-01 -5.424461708e-01 -6.939377525e-01 -5.424461708e-01 -6.939377525e-01 -3.750087354e-01 2.931416425e-01
5.645914773e+00 -3.622704627e-01 2.958716915e-01 -5.597542083e-01 -6.853728215e-01 -5.597542083e-01 -6.853728215e-01 -3.622704627e-01 2.958716915e-01
5.698191761e+00 -3.492768681e-01 2.980519283e-01 -5.771183983e-01 -6.763053263e-01 -5.771183983e-01 -6.763053263e-01 -3.492768681e-01 2.980519283e-01
5.750468750e+00 -3.360498146e-01 2.996618295e-01 -5.945238960e-01 -6.667170302e-01 -5.945238960e-01 -6.667170302e-01 -3.360498146e-01 2.996618295e-01
5.802745739e+00 -3.226131793e-01 3.006815955e-01 -6.119541916e-01 -6.565898620e-01 -6.119541916e-01 -6.565898620e-01 -3.226131793e-01 3.006815955e-01
5.855022727e+00 -3.089928608e-01 3.010923080e-01 -6.293910488e-01 -6.459060411e-01 -6.293910488e-01 -6.459060411e-01 -3.089928608e-01 3.010923080e-01
5.907299716e+00 -2.952167713e-01 3.008760920e-01 -6.468144528e-01 -6.346482140e-01 -6.468144528e-01 -6.346482140e-01 -2.952167713e-01 3.008760920e-01
5.959576705e+00 -2.813148133e-01 3.000162815e-01 -6.642025669e-01 -6.227996032e-01 -6.642025669e-01 -6.227996032e-01 -2.813148133e-01 3.000162815e-01
6.011853693e+00 -2.673188381e-01 2.984975878e-01 -6.815317000e-01 -6.103441690e-01 -6.815317000e-01 -6.103441690e-01 -2.673188381e-01 2.984975878e-01
6.064130682e+00 -2.532625884e-01 2.963062695e-01 -6.987762885e-01 -5.972667802e-01 -6.987762885e-01 -5.972667802e-01 -2.532625884e-01 2.963062695e-01
6.116407670e+00 -2.391816213e-01 2.934303019e-01 -7.159088915e-01 -5.835533968e-01 -7.159088915e-01 -5.835533968e-01 -2.391816213e-01 2.934303019e-01
6.168684659e+00 -2.251132138e-01 2.898595455e-01 -7.329002032e-01 -5.691912607e-01 -7.329002032e-01 -5.691912607e-01 -2.251132138e-01 2.898595455e-01
6.220961648e+00 -2.110962485e-01 2.855859121e-01 -7.497190834e-01 -5.541690933e-01 -7.497190834e-01 -5.541690933e-01 -2.110962485e-01 2.855859121e-01
6.273238636e+00 -1.971710814e-01 2.806035260e-01 -7.663326071e-01 -5.384772994e-01 -7.663326071e-01 -5.384772994e-01 -1.971710814e-01 2.806035260e-01
6.325515625e+00 -1.833793890e-01 2.749088793e-01 -7.827061360e-01 -5.221081741e-01 -7.827061360e-01 -5.221081741e-01 -1.833793890e-01 2.749088793e-01
6.377792614e+00 -1.697639981e-01 2.685009803e-01 -7.988034118e-01 -5.050561107e-01 -7.988034118e-01 -5.050561107e-01 -1.697639981e-01 2.685009803e-01
6.430069602e+00 -1.563686954e-01 2.613814915e-01 -8.145866727e-01 -4.873178073e-01 -8.145866727e-01 -4.873178073e-01 -1.563686954e-01 2.613814915e-01
6.482346591e+00 -1.432380205e-01 2.535548566e-01 -8.300167942e-01 -4.688924683e-01 -8.300167942e-01 -4.688924683e-01 -1.432380205e-01 2.535548566e-01
6.534623580e+00 -1.304170398e-01 2.450284143e-01 -8.450534546e-01 -4.497819990e-01 -8.450534546e-01 -4.497819990e-01 -1.304170398e-01 2.450284143e-01
6.586900568e+00 -1.179511055e-01 2.358124969e-01 -8.596553248e-01 -4.299911891e-01 -8.596553248e-01 -4.299911891e-01 -1.179511055e-01 2.358124969e-01
6.639177557e+00 -1.058855989e-01 2.259205115e-01 -8.737802821e-01 -4.095278814e-01 -8.737802821e-01 -4.095278814e-01 -1.058855989e-01 2.259205115e-01
6.691454545e+00 -9.426565925e-02 2.153690019e-01 -8.873856475e-01 -3.884031237e-01 -8.873856475e-01 -3.884031237e-01 -9.426565925e-02 2.153690019e-01
6.743731534e+00 -8.313590247e-02 2.041776896e-01 -9.004284458e-01 -3.666312984e-01 -9.004284458e-01 -3.666312984e-01 -8.313590247e-02 2.041776896e-01
6.796008523e+00 -7.254012883e-02 1.923694928e-01 -9.128656846e-01 -3.442302280e-01 -9.128656846e-01 -3.442302280e-01 -7.254012883e-02 1.923694928e-01
6.848285511e+00 -6.252102423e-02 1.799705204e-01 -9.246546535e-01 -3.212212526e-01 -9.246546535e-01 -3.212212526e-01 -6.252102423e-02 1.799705204e-01
6.900562500e+00 -5.311985700e-02 1.670100428e-01 -9.357532362e-01 -2.976292759e-01 -9.357532362e-01 -2.976292759e-01 -5.311985700e-02 1.670100428e-01
6.952839489e+00 -4.437617353e-02 1.535204379e-01 -9.461202374e-01 -2.734827781e-01 -9.461202374e-01 -2.734827781e-01 -4.437617353e-02 1.535204379e-01
7.005116477e+00 -3.632749617e-02 1.395371162e-01 -9.557157158e-01 -2.488137919e-01 -9.557157158e-01 -2.488137919e-01 -3.632749617e-02 1.395371162e-01
7.057393466e+00 -2.900902709e-02 1.250984308e-01 -9.645013233e-01 -2.236578416e-01 -9.645013233e-01 -2.236578416e-01 -2.900902709e-02 1.250984308e-01
7.109670455e+00 -2.245336220e-02 1.102455867e-01 -9.724406433e-01 -1.980538418e-01 -9.724406433e-01 -1.980538418e-01 -2.245336220e-02 1.102455867e-01
7.161947443e+00 -1.669021933e-02 9.502258711e-02 -9.794995253e-01 -1.720439572e-01 -9.794995253e-01 -1.720439572e-01 -1.669021933e-02 9.502258711e-02
7.214224432e+00 -1.174618606e-02 7.947631041e-02 -9.856464089e-01 -1.456734221e-01 -9.856464089e-01 -1.456734221e-01 -1.174618606e-02 7.947631041e-02
7.266501420e+00 -7.644494476e-03 6.365700528e-02 -9.908526354e-01 -1.189903211e-01 -9.908526354e-01 -1.189903211e-01 -7.644494476e-03 6.365700528e-02
7.318778409e+00 -4.404839876e-03 4.762027674e-02 -9.950927393e-01 -9.204533192e-02 -9.950927393e-01 -9.204533192e-02 -4.404839876e-03 4.762027674e-02
7.371055398e+00 -2.043314422e-03 3.143607810e-02 -9.983447168e-01 -6.489143305e-02 -9.983447168e-01 -6.489143305e-02 -2.043314422e-03 3.143607810e-02
7.423332386e+00 -5.730870362e-04 1.525733662e-02 -1.000590267e+00 -3.758357864e-02 -1.000590267e+00 -3.758357864e-02 -5.730870362e-04 1.525733662e-02
7.475609375e+00 -3.751109081e-05 3.692071258e-03 -1.001815000e+00 -1.017834458e-02 -1.001815000e+00 -1.017834458e-02 -3.751109081e-05 3.692071258e-03
7.527886364e+00 -3.159073343e-04 -1.833277029e-02 -1.002008615e+00 1.726645048e-02 -1.002008615e+00 1.726645048e-02 -3.159073343e-04 -1.833277029e-02
7.580163352e+00 -1.545378139e-03 -3.461857946e-02 -1.001165031e+00 4.469214438e-02 -1.001165031e+00 4.469214438e-02 -1.545378139e-03 -3.461857946e-02
7.632440341e+00 -3.670257623e-03 -5.091119076e-02 -9.992824880e-01 7.203964618e-02 -9.992824880e-01 7.203964618e-02 -3.670257623e-03 -5.091119076e-02
7.684717330e+00 -6.682895260e-03 -6.708919830e-02 -9.963636034e-01 9.924986094e-02 -9.963636034e-01 9.924986094e-02 -6.682895260e-03 -6.708919830e-02
7.736994318e+00 -1.057090202e-02 -8.308556547e-02 -9.924153818e-01 1.262641195e-01 -9.924153818e-01 1.262641195e-01 -1.057090202e-02 -8.308556547e-02
7.789271307e+00 -1.531785145e-02 -9.884423339e-02 -9.874491891e-01 1.530246073e-01 -9.874491891e-01 1.530246073e-01 -1.531785145e-02 -9.884423339e-02
7.841548295e+00 -2.090352025e-02 -1.143135565e-01 -9.814806819e-01 1.794747879e-01 -9.814806819e-01 1.794747879e-01 -2.090352025e-02 -1.143135565e-01
7.893825284e+00 -2.730409379e-02 -1.294448056e-01 -9.745296978e-01 2.055598149e-01 -9.745296978e-01 2.055598149e-01 -2.730409379e-02 -1.294448056e-01
7.946102273e+00 -3.449238527e-02 -1.441918265e-01 -9.666201080e-01 2.312269285e-01 -9.666201080e-01 2.312269285e-01 -3.449238527e-02 -1.441918265e-01
7.998379261e+00 -4.243807533e-02 -1.585110358e-01 -9.577796335e-01 2.564258320e-01 -9.577796335e-01 2.564258320e-01 -4.243807533e-02 -1.585110358e-01
8.050656250e+00 -5.110797125e-02 -1.723615203e-01 -9.480396302e-01 2.811090438e-01 -9.480396302e-01 2.811090438e-01 -5.110797125e-02 -1.723615203e-01
8.102933239e+00 -6.046628229e-02 -1.857051637e-01 -9.374348431e-01 3.052322225e-01 -9.374348431e-01 3.052322225e-01 -6.046628229e-02 -1.857051637e-01
8.155210227e+00 -7.047490728e-02 -1.985067669e-01 -9.260031367e-01 3.287544612e-01 -9.260031367e-01 3.287544612e-01 -7.047490728e-02 -1.985067669e-01
8.207487216e+00 -8.109373025e-02 -2.107341494e-01 -9.137852018e-01 3.516385497e-01 -9.137852018e-01 3.516385497e-01 -8.109373025e-02 -2.107341494e-01
8.259764205e+00 -9.228092001e-02 -2.223582263e-01 -9.008242453e-01 3.738512017e-01 -9.008242453e-01 3.738512017e-01 -9.228092001e-02 -2.223582263e-01
8.312041193e+00 -1.039932298e-01 -2.333530583e-01 -8.871656648e-01 3.953632469e-01 -8.871656648e-01 3.953632469e-01 -1.039932298e-01 -2.333530583e-01
8.364318182e+00 -1.161862932e-01 -2.436958744e-01 -8.728567131e-01 4.161497860e-01 -8.728567131e-01 4.161497860e-01 -1.161862932e-01 -2.436958744e-01
8.416595170e+00 -1.288149138e-01 -2.533670683e-01 -8.579461544e-01 4.361903094e-01 -8.579461544e-01 4.361903094e-01 -1.288149138e-01 -2.533670683e-01
8.468872159e+00 -1.418333449e-01 -2.623501712e-01 -8.424839171e-01 4.554687783e-01 -8.424839171e-01 4.554687783e-01 -1.418333449e-01 -2.623501712e-01
8.521149148e+00 -1.551955578e-01 -2.706318012e-01 -8.265207449e-01 4.739736699e-01 -8.265207449e-01 4.739736699e-01 -1.551955578e-01 -2.706318012e-01
8.573426136e+00 -1.688554966e-01 -2.782015939e-01 -8.101078497e-01 4.916979854e-01 -8.101078497e-01 4.916979854e-01 -1.688554966e-01 -2.782015939e-01
8.625703125e+00 -1.827673186e-01 -2.850521156e-01 -7.932965678e-01 5.086392228e-01 -7.932965678e-01 5.086392228e-01 -1.827673186e-01 -2.850521156e-01
8.677980114e+00 -1.968856186e-01 -2.911787617e-01 -7.761380224e-01 5.247993148e-01 -7.761380224e-01 5.247993148e-01 -1.968856186e-01 -2.911787617e-01
8.730257102e+00 -2.111656378e-01 -2.965796437e-01 -7.586827940e-01 5.401845322e-01 -7.586827940e-01 5.401845322e-01 -2.111656378e-01 -2.965796437e-01
8.782534091e+00 -2.255634567e-01 -3.012554664e-01 -7.409805997e-01 5.548053531e-01 -7.409805997e-01 5.548053531e-01 -2.255634567e-01 -3.012554664e-01
8.834811080e+00 -2.400361716e-01 -3.052093976e-01 -7.230799838e-01 5.686763003e-01 -7.230799838e-01 5.686763003e-01 -2.400361716e-01 -3.052093976e-01
8.887088068e+00 -2.545420564e-01 -3.084469328e-01 -7.050280202e-01 5.818157454e-01 -7.050280202e-01 5.818157454e-01 -2.545420564e-01 -3.084469328e-01
8.939365057e+00 -2.690407092e-01 -3.109757555e-01 -6.868700292e-01 5.942456815e-01 -6.868700292e-01 5.942456815e-01 -2.690407092e-01 -3.109757555e-01
8.991642045e+00 -2.834931844e-01 -3.128055960e-01 -6.686493074e-01 6.059914651e-01 -6.686493074e-01 6.059914651e-01 -2.834931844e-01 -3.128055960e-01
9.043919034e+00 -2.978621120e-01 -3.139480881e-01 -6.504068757e-01 6.170815273e-01 -6.504068757e-01 6.170815273e-01 -2.978621120e-01 -3.139480881e-01
9.096196023e+00 -3.121118028e-01 -3.144166255e-01 -6.321812430e-01 6.275470551e-01 -6.321812430e-01 6.275470551e-01 -3.121118028e-01 -3.144166255e-01
9.148473011e+00 -3.262083414e-01 -3.142262190e-01 -6.140081901e-01 6.374216447e-01 -6.140081901e-01 6.374216447e-01 -3.262083414e-01 -3.142262190e-01
9.200750000e+00 -3.401196678e-01 -3.133933530e-01 -5.959205740e-01 6.467409270e-01 -5.959205740e-01 6.467409270e-01 -3.401196678e-01 -3.133933530e-01
9.253026989e+00 -3.538156457e-01 -3.119358445e-01 -5.779481548e-01 6.555421675e-01 -5.779481548e-01 6.555421675e-01 -3.538156457e-01 -3.119358445e-01
9.305303977e+00 -3.672681201e-01 -3.098727013e-01 -5.601174480e-01 6.638638425e-01 -5.601174480e-01 6.638638425e-01 -3.672681201e-01 -3.098727013e-01
9.357580966e+00 -3.804509627e-01 -3.072239833e-01 -5.424516029e-01 6.717451950e-01 -5.424516029e-01 6.717451950e-01 -3.804509627e-01 -3.072239833e-01
9.409857955e+00 -3.933401057e-01 -3.040106635e-01 -5.249703117e-01 6.792257727e-01 -5.249703117e-01 6.792257727e-01 -3.933401057e-01 -3.040106635e-01
9.462134943e+00 -4.059135631e-01 -3.002544916e-01 -5.076897495e-01 6.863449537e-01 -5.076897495e-01 6.863449537e-01 -4.059135631e-01 -3.002544916e-01
9.514411932e+00 -4.181514411e-01 -2.959778586e-01 -4.906225495e-01 6.931414635e-01 -4.906225495e-01 6.931414635e-01 -4.181514411e-01 -2.959778586e-01
9.566688920e+00 -4.300359352e-01 -2.912036641e-01 -4.737778139e-01 6.996528903e-01 -4.737778139e-01 6.996528903e-01 -4.300359352e-01 -2.912036641e-01
9.618965909e+00 -4.415513160e-01 -2.859551855e-01 -4.571611633e-01 7.059152046e-01 -4.571611633e-01 7.059152046e-01 -4.415513160e-01 -2.859551855e-01
9.671242898e+00 -4.526839021e-01 -2.802559503e-01 -4.407748262e-01 7.119622903e-01 -4.407748262e-01 7.119622903e-01 -4.526839021e-01 -2.802559503e-01
9.723519886e+00 -4.634220220e-01 -2.741296124e-01 -4.246177687e-01 7.178254958e-01 -4.246177687e-01 7.178254958e-01 -4.634220220e-01 -2.741296124e-01
9.775796875e+00 -4.737559640e-01 -2.675998317e-01 -4.086858645e-01 7.235332118e-01 -4.086858645e-01 7.235332118e-01 -4.737559640e-01 -2.675998317e-01
9.828073864e+00 -4.836779157e-01 -2.606901599e-01 -3.929721054e-01 7.291104849e-01 -3.929721054e-01 7.291104849e-01 -4.836779157e-01 -2.606901599e-01
9.880350852e+00 -4.931818924e-01 -2.534239303e-01 -3.774668486e-01 7.345786742e-01 -3.774668486e-01 7.345786742e-01 -4.931818924e-01 -2.534239303e-01
