! rfx Touchstone export
! 2-port, 115 frequencies
! rfx gallery case multilayer_fresnel
! tier E5; quick_smoke=True
# GHz S RI R 50
3.032065341e+00 -1.947500035e-01 -4.817418787e-02 1.595541177e-01 -6.450168930e-01 1.595541177e-01 -6.450168930e-01 -1.947500035e-01 -4.817418787e-02
3.136619318e+00 -1.954214591e-01 -4.092948178e-02 1.367054998e-01 -6.527125945e-01 1.367054998e-01 -6.527125945e-01 -1.954214591e-01 -4.092948178e-02
3.241173295e+00 -1.961030892e-01 -3.380441345e-02 1.137126727e-01 -6.596596162e-01 1.137126727e-01 -6.596596162e-01 -1.961030892e-01 -3.380441345e-02
3.345727273e+00 -1.967901587e-01 -2.676609869e-02 9.056728109e-02 -6.658702794e-01 9.056728109e-02 -6.658702794e-01 -1.967901587e-01 -2.676609869e-02
3.450281250e+00 -1.974773029e-01 -1.978411484e-02 6.725900222e-02 -6.713530758e-01 6.725900222e-02 -6.713530758e-01 -1.974773029e-01 -1.978411484e-02
3.554835227e+00 -1.981584665e-01 -1.283006103e-02 4.377590075e-02 -6.761125561e-01 4.377590075e-02 -6.761125561e-01 -1.981584665e-01 -1.283006103e-02
3.659389205e+00 -1.988268332e-01 -5.877191773e-03 2.010476842e-02 -6.801492262e-01 2.010476842e-02 -6.801492262e-01 -1.988268332e-01 -5.877191773e-03
3.763943182e+00 -1.994747453e-01 1.099889049e-03 -3.768545030e-03 -6.834594462e-01 -3.768545030e-03 -6.834594462e-01 -1.994747453e-01 1.099889049e-03
3.868497159e+00 -2.000936137e-01 8.125483510e-03 -2.785880397e-02 -6.860353299e-01 -2.785880397e-02 -6.860353299e-01 -2.000936137e-01 8.125483510e-03
3.973051136e+00 -2.006738162e-01 1.522301178e-02 -5.218105549e-02 -6.878646414e-01 -5.218105549e-02 -6.878646414e-01 -2.006738162e-01 1.522301178e-02
4.077605114e+00 -2.012045854e-01 2.241518642e-02 -7.675028788e-02 -6.889306903e-01 -7.675028788e-02 -6.889306903e-01 -2.012045854e-01 2.241518642e-02
4.182159091e+00 -2.016738849e-01 2.972415276e-02 -1.015810720e-01 -6.892122236e-01 -1.015810720e-01 -6.892122236e-01 -2.016738849e-01 2.972415276e-02
4.286713068e+00 -2.020682734e-01 3.717159782e-02 -1.266871783e-01 -6.886833195e-01 -1.266871783e-01 -6.886833195e-01 -2.020682734e-01 3.717159782e-02
4.391267045e+00 -2.023727572e-01 4.477882928e-02 -1.520811626e-01 -6.873132835e-01 -1.520811626e-01 -6.873132835e-01 -2.023727572e-01 4.477882928e-02
4.495821023e+00 -2.025706308e-01 5.256682488e-02 -1.777739125e-01 -6.850665542e-01 -1.777739125e-01 -6.850665542e-01 -2.025706308e-01 5.256682488e-02
4.600375000e+00 -2.026433064e-01 6.055625186e-02 -2.037741481e-01 -6.819026254e-01 -2.037741481e-01 -6.819026254e-01 -2.026433064e-01 6.055625186e-02
4.704928977e+00 -2.025701329e-01 6.876745546e-02 -2.300878699e-01 -6.777759926e-01 -2.300878699e-01 -6.777759926e-01 -2.025701329e-01 6.876745546e-02
4.809482955e+00 -2.023282064e-01 7.722041457e-02 -2.567177471e-01 -6.726361366e-01 -2.567177471e-01 -6.726361366e-01 -2.023282064e-01 7.722041457e-02
4.914036932e+00 -2.018921742e-01 8.593466247e-02 -2.836624423e-01 -6.664275575e-01 -2.836624423e-01 -6.664275575e-01 -2.018921742e-01 8.593466247e-02
5.018590909e+00 -2.012340355e-01 9.492917003e-02 -3.109158684e-01 -6.590898758e-01 -3.109158684e-01 -6.590898758e-01 -2.012340355e-01 9.492917003e-02
5.123144886e+00 -2.003229439e-01 1.042221888e-01 -3.384663760e-01 -6.505580205e-01 -3.384663760e-01 -6.505580205e-01 -2.003229439e-01 1.042221888e-01
5.227698864e+00 -1.991250159e-01 1.138310513e-01 -3.662958756e-01 -6.407625266e-01 -3.662958756e-01 -6.407625266e-01 -1.991250159e-01 1.138310513e-01
5.332252841e+00 -1.976031536e-01 1.237719268e-01 -3.943788983e-01 -6.296299657e-01 -3.943788983e-01 -6.296299657e-01 -1.976031536e-01 1.237719268e-01
5.436806818e+00 -1.957168894e-01 1.340595306e-01 -4.226816089e-01 -6.170835400e-01 -4.226816089e-01 -6.170835400e-01 -1.957168894e-01 1.340595306e-01
5.541360795e+00 -1.934222636e-01 1.447067887e-01 -4.511607895e-01 -6.030438648e-01 -4.511607895e-01 -6.030438648e-01 -1.934222636e-01 1.447067887e-01
5.645914773e+00 -1.906717444e-01 1.557244583e-01 -4.797628207e-01 -5.874299705e-01 -4.797628207e-01 -5.874299705e-01 -1.906717444e-01 1.557244583e-01
5.750468750e+00 -1.874142058e-01 1.671207105e-01 -5.084226976e-01 -5.701605491e-01 -5.084226976e-01 -5.701605491e-01 -1.874142058e-01 1.671207105e-01
5.855022727e+00 -1.835949728e-01 1.789006838e-01 -5.370631265e-01 -5.511554677e-01 -5.370631265e-01 -5.511554677e-01 -1.835949728e-01 1.789006838e-01
5.959576705e+00 -1.791559504e-01 1.910660211e-01 -5.655937618e-01 -5.303375627e-01 -5.655937618e-01 -5.303375627e-01 -1.791559504e-01 1.910660211e-01
6.064130682e+00 -1.740358445e-01 2.036144074e-01 -5.939106513e-01 -5.076347155e-01 -5.939106513e-01 -5.076347155e-01 -1.740358445e-01 2.036144074e-01
6.168684659e+00 -1.681704844e-01 2.165391332e-01 -6.218959673e-01 -4.829821961e-01 -6.218959673e-01 -4.829821961e-01 -1.681704844e-01 2.165391332e-01
6.273238636e+00 -1.614932497e-01 2.298287100e-01 -6.494181078e-01 -4.563252374e-01 -6.494181078e-01 -4.563252374e-01 -1.614932497e-01 2.298287100e-01
6.377792614e+00 -1.539355972e-01 2.434665726e-01 -6.763322505e-01 -4.276217790e-01 -6.763322505e-01 -4.276217790e-01 -1.539355972e-01 2.434665726e-01
6.482346591e+00 -1.454276743e-01 2.574309040e-01 -7.024814387e-01 -3.968452904e-01 -7.024814387e-01 -3.968452904e-01 -1.454276743e-01 2.574309040e-01
6.586900568e+00 -1.358989928e-01 2.716946201e-01 -7.276982594e-01 -3.639875550e-01 -7.276982594e-01 -3.639875550e-01 -1.358989928e-01 2.716946201e-01
6.691454545e+00 -1.252791260e-01 2.862255516e-01 -7.518071515e-01 -3.290612677e-01 -7.518071515e-01 -3.290612677e-01 -1.252791260e-01 2.862255516e-01
6.796008523e+00 -1.134983752e-01 3.009868500e-01 -7.746273422e-01 -2.921022787e-01 -7.746273422e-01 -2.921022787e-01 -1.134983752e-01 3.009868500e-01
6.900562500e+00 -1.004883415e-01 3.159376393e-01 -7.959763660e-01 -2.531713066e-01 -7.959763660e-01 -2.531713066e-01 -1.004883415e-01 3.159376393e-01
7.005116477e+00 -8.618232669e-02 3.310339166e-01 -8.156740693e-01 -2.123549449e-01 -8.156740693e-01 -2.123549449e-01 -8.618232669e-02 3.310339166e-01
7.109670455e+00 -7.051548109e-02 3.462296877e-01 -8.335469459e-01 -1.697658115e-01 -8.335469459e-01 -1.697658115e-01 -7.051548109e-02 3.462296877e-01
7.214224432e+00 -5.342461647e-02 3.614783028e-01 -8.494326053e-01 -1.255417291e-01 -8.494326053e-01 -1.255417291e-01 -5.342461647e-02 3.614783028e-01
7.318778409e+00 -3.484760651e-02 3.767339364e-01 -8.631841352e-01 -7.984388499e-02 -8.631841352e-01 -7.984388499e-02 -3.484760651e-02 3.767339364e-01
7.423332386e+00 -1.472231149e-02 3.919531379e-01 -8.746741016e-01 -3.285399026e-02 -8.746741016e-01 -3.285399026e-02 -1.472231149e-02 3.919531379e-01
7.527886364e+00 -7.015018732e-03 -4.070963636e-01 -8.837979397e-01 1.522946324e-02 -8.837979397e-01 1.522946324e-02 -7.015018732e-03 -4.070963636e-01
7.632440341e+00 -3.043188765e-02 -4.221293970e-01 -8.904765157e-01 6.419567429e-02 -8.904765157e-01 6.419567429e-02 -3.043188765e-02 -4.221293970e-01
7.736994318e+00 -5.560224349e-02 -4.370245635e-01 -8.946576969e-01 1.138264968e-01 -8.946576969e-01 1.138264968e-01 -5.560224349e-02 -4.370245635e-01
7.841548295e+00 -8.260970256e-02 -4.517616550e-01 -8.963168410e-01 1.639016212e-01 -8.963168410e-01 1.639016212e-01 -8.260970256e-02 -4.517616550e-01
7.946102273e+00 -1.115512751e-01 -4.663284948e-01 -8.954561964e-01 2.142036817e-01 -8.954561964e-01 2.142036817e-01 -1.115512751e-01 -4.663284948e-01
8.050656250e+00 -1.425415587e-01 -4.807210921e-01 -8.921032868e-01 2.645230157e-01 -8.921032868e-01 2.645230157e-01 -1.425415587e-01 -4.807210921e-01
8.155210227e+00 -1.757173678e-01 -4.949433481e-01 -8.863084230e-01 3.146618370e-01 -8.863084230e-01 3.146618370e-01 -1.757173678e-01 -4.949433481e-01
8.259764205e+00 -2.112427754e-01 -5.090062915e-01 -8.781415374e-01 3.644376478e-01 -8.781415374e-01 3.644376478e-01 -2.112427754e-01 -5.090062915e-01
8.364318182e+00 -2.493145566e-01 -5.229268204e-01 -8.676885648e-01 4.136857804e-01 -8.676885648e-01 4.136857804e-01 -2.493145566e-01 -5.229268204e-01
8.468872159e+00 -2.901680291e-01 -5.367259171e-01 -8.550475998e-01 4.622610329e-01 -8.550475998e-01 4.622610329e-01 -2.901680291e-01 -5.367259171e-01
8.573426136e+00 -3.340832836e-01 -5.504262750e-01 -8.403250442e-01 5.100384244e-01 -8.403250442e-01 5.100384244e-01 -3.340832836e-01 -5.504262750e-01
8.677980114e+00 -3.813917614e-01 -5.640492263e-01 -8.236319290e-01 5.569131514e-01 -8.236319290e-01 5.569131514e-01 -3.813917614e-01 -5.640492263e-01
8.782534091e+00 -4.324830623e-01 -5.776107911e-01 -8.050805538e-01 6.027998589e-01 -8.050805538e-01 6.027998589e-01 -4.324830623e-01 -5.776107911e-01
8.887088068e+00 -4.878117065e-01 -5.911165595e-01 -7.847815424e-01 6.476313635e-01 -7.847815424e-01 6.476313635e-01 -4.878117065e-01 -5.911165595e-01
8.991642045e+00 -5.479032977e-01 -6.045549840e-01 -7.628413708e-01 6.913569711e-01 -7.628413708e-01 6.913569711e-01 -5.479032977e-01 -6.045549840e-01
9.096196023e+00 -6.133590565e-01 -6.178884716e-01 -7.393603853e-01 7.339405235e-01 -7.393603853e-01 7.339405235e-01 -6.133590565e-01 -6.178884716e-01
9.200750000e+00 -6.848569096e-01 -6.310414350e-01 -7.144313006e-01 7.753582975e-01 -7.144313006e-01 7.753582975e-01 -6.848569096e-01 -6.310414350e-01
9.305303977e+00 -7.631460682e-01 -6.438841835e-01 -6.881381409e-01 8.155968574e-01 -6.881381409e-01 8.155968574e-01 -7.631460682e-01 -6.438841835e-01
9.409857955e+00 -8.490300978e-01 -6.562112525e-01 -6.605555775e-01 8.546509442e-01 -6.605555775e-01 8.546509442e-01 -8.490300978e-01 -6.562112525e-01
9.514411932e+00 -9.433306255e-01 -6.677125823e-01 -6.317486061e-01 8.925214584e-01 -6.317486061e-01 8.925214584e-01 -9.433306255e-01 -6.677125823e-01
9.618965909e+00 -1.046819908e+00 -6.779361088e-01 -6.017725051e-01 9.292135797e-01 -6.017725051e-01 9.292135797e-01 -1.046819908e+00 -6.779361088e-01
9.723519886e+00 -1.160105755e+00 -6.862413218e-01 -5.706730197e-01 9.647350478e-01 -5.706730197e-01 9.647350478e-01 -1.160105755e+00 -6.862413218e-01
9.828073864e+00 -1.283448187e+00 -6.917461024e-01 -5.384867199e-01 9.990946126e-01 -5.384867199e-01 9.990946126e-01 -1.283448187e+00 -6.917461024e-01
9.932627841e+00 -1.416487648e+00 -6.932750849e-01 -5.052414873e-01 1.032300658e+00 -5.052414873e-01 1.032300658e+00 -1.416487648e+00 -6.932750849e-01
1.003718182e+01 -1.557877913e+00 -6.893284822e-01 -4.709570943e-01 1.064359988e+00 -4.709570943e-01 1.064359988e+00 -1.557877913e+00 -6.893284822e-01
1.014173580e+01 -1.704856395e+00 -6.781058648e-01 -4.356458428e-01 1.095276770e+00 -4.356458428e-01 1.095276770e+00 -1.704856395e+00 -6.781058648e-01
1.024628977e+01 -1.852863079e+00 -6.576345067e-01 -3.993132410e-01 1.125051611e+00 -3.993132410e-01 1.125051611e+00 -1.852863079e+00 -6.576345067e-01
1.035084375e+01 -1.995427507e+00 -6.260504367e-01 -3.619586984e-01 1.153680759e+00 -3.619586984e-01 1.153680759e+00 -1.995427507e+00 -6.260504367e-01
1.045539773e+01 -2.124614216e+00 -5.820357321e-01 -3.235762284e-01 1.181155412e+00 -3.235762284e-01 1.181155412e+00 -2.124614216e+00 -5.820357321e-01
1.055995170e+01 -2.232216016e+00 -5.253135437e-01 -2.841551486e-01 1.207461108e+00 -2.841551486e-01 1.207461108e+00 -2.232216016e+00 -5.253135437e-01
1.066450568e+01 -2.311515514e+00 -4.569871121e-01 -2.436807770e-01 1.232577203e+00 -2.436807770e-01 1.232577203e+00 -2.311515514e+00 -4.569871121e-01
1.076905966e+01 -2.358956185e+00 -3.794961002e-01 -2.021351206e-01 1.256476398e+00 -2.021351206e-01 1.256476398e+00 -2.358956185e+00 -3.794961002e-01
1.087361364e+01 -2.374913395e+00 -2.961345393e-01 -1.594975602e-01 1.279124323e+00 -1.594975602e-01 1.279124323e+00 -2.374913395e+00 -2.961345393e-01
1.097816761e+01 -2.363207610e+00 -2.103307246e-01 -1.157455333e-01 1.300479165e+00 -1.157455333e-01 1.300479165e+00 -2.363207610e+00 -2.103307246e-01
1.108272159e+01 -2.329723178e+00 -1.250088130e-01 -7.085522162e-02 1.320491317e+00 -7.085522162e-02 1.320491317e+00 -2.329723178e+00 -1.250088130e-01
1.118727557e+01 -2.280868704e+00 -4.224519726e-02 -2.480224888e-02 1.339103068e+00 -2.480224888e-02 1.339103068e+00 -2.280868704e+00 -4.224519726e-02
1.129182955e+01 -2.222444894e+00 3.676785005e-02 2.243760208e-02 1.356248302e+00 2.243760208e-02 1.356248302e+00 -2.222444894e+00 3.676785005e-02
1.139638352e+01 -2.159086275e+00 1.115663466e-01 7.088764500e-02 1.371852230e+00 7.088764500e-02 1.371852230e+00 -2.159086275e+00 1.115663466e-01
1.150093750e+01 -2.094157520e+00 1.821950277e-01 1.205695081e-01 1.385831134e+00 1.205695081e-01 1.385831134e+00 -2.094157520e+00 1.821950277e-01
1.160549148e+01 -2.029902570e+00 2.490057400e-01 1.715023036e-01 1.398092136e+00 1.715023036e-01 1.398092136e+00 -2.029902570e+00 2.490057400e-01
1.171004545e+01 -1.967684436e+00 3.125055860e-01 2.237017380e-01 1.408532992e+00 2.237017380e-01 1.408532992e+00 -1.967684436e+00 3.125055860e-01
1.181459943e+01 -1.908222965e+00 3.732561536e-01 2.771791499e-01 1.417041927e+00 2.771791499e-01 1.417041927e+00 -1.908222965e+00 3.732561536e-01
1.191915341e+01 -1.851791976e+00 4.318129727e-01 3.319404646e-01 1.423497504e+00 3.319404646e-01 1.423497504e+00 -1.851791976e+00 4.318129727e-01
1.202370739e+01 -1.798367834e+00 4.886925345e-01 3.879850508e-01 1.427768558e+00 3.879850508e-01 1.427768558e+00 -1.798367834e+00 4.886925345e-01
1.212826136e+01 -1.747735027e+00 5.443564997e-01 4.453044701e-01 1.429714205e+00 4.453044701e-01 1.429714205e+00 -1.747735027e+00 5.443564997e-01
1.223281534e+01 -1.699558284e+00 5.992057971e-01 5.038811048e-01 1.429183946e+00 5.038811048e-01 1.429183946e+00 -1.699558284e+00 5.992057971e-01
1.233736932e+01 -1.653430429e+00 6.535799244e-01 5.636866582e-01 1.426017903e+00 5.636866582e-01 1.426017903e+00 -1.653430429e+00 6.535799244e-01
1.244192330e+01 -1.608903479e+00 7.077586256e-01 6.246805174e-01 1.420047205e+00 6.246805174e-01 1.420047205e+00 -1.608903479e+00 7.077586256e-01
1.254647727e+01 -1.565508532e+00 7.619643406e-01 6.868079796e-01 1.411094581e+00 6.868079796e-01 1.411094581e+00 -1.565508532e+00 7.619643406e-01
1.265103125e+01 -1.522768422e+00 8.163645795e-01 7.499983451e-01 1.398975195e+00 7.499983451e-01 1.398975195e+00 -1.522768422e+00 8.163645795e-01
1.275558523e+01 -1.480205892e+00 8.710738298e-01 8.141628891e-01 1.383497775e+00 8.141628891e-01 1.383497775e+00 -1.480205892e+00 8.710738298e-01
1.286013920e+01 -1.437349132e+00 9.261548686e-01 8.791927383e-01 1.364466098e+00 8.791927383e-01 1.364466098e+00 -1.437349132e+00 9.261548686e-01
1.296469318e+01 -1.393735970e+00 9.816195058e-01 9.449566896e-01 1.341680886e+00 9.449566896e-01 1.341680886e+00 -1.393735970e+00 9.816195058e-01
1.306924716e+01 -1.348917538e+00 1.037428877e+00 1.011299026e+00 1.314942183e+00 1.011299026e+00 1.314942183e+00 -1.348917538e+00 1.037428877e+00
1.317380114e+01 -1.302461988e+00 1.093493458e+00 1.078037410e+00 1.284052262e+00 1.078037410e+00 1.284052262e+00 -1.302461988e+00 1.093493458e+00
1.327835511e+01 -1.253958600e+00 1.149672999e+00 1.144960944e+00 1.248819119e+00 1.144960944e+00 1.248819119e+00 -1.253958600e+00 1.149672999e+00
1.338290909e+01 -1.203022510e+00 1.205776634e+00 1.211828539e+00 1.209060592e+00 1.211828539e+00 1.209060592e+00 -1.203022510e+00 1.205776634e+00
1.348746307e+01 -1.149300144e+00 1.261563383e+00 1.278367723e+00 1.164609109e+00 1.278367723e+00 1.164609109e+00 -1.149300144e+00 1.261563383e+00
1.359201705e+01 -1.092475365e+00 1.316743345e+00 1.344274068e+00 1.115317049e+00 1.344274068e+00 1.115317049e+00 -1.092475365e+00 1.316743345e+00
1.369657102e+01 -1.032276248e+00 1.370979828e+00 1.409211430e+00 1.061062648e+00 1.409211430e+00 1.061062648e+00 -1.032276248e+00 1.370979828e+00
1.380112500e+01 -9.684823028e-01 1.423892685e+00 1.472813187e+00 1.001756327e+00 1.472813187e+00 1.001756327e+00 -9.684823028e-01 1.423892685e+00
1.390567898e+01 -9.009318803e-01 1.475063092e+00 1.534684666e+00 9.373472561e-01 1.534684666e+00 9.373472561e-01 -9.009318803e-01 1.475063092e+00
1.401023295e+01 -8.295294203e-01 1.524039959e+00 1.594406925e+00 8.678299045e-01 1.594406925e+00 8.678299045e-01 -8.295294203e-01 1.524039959e+00
1.411478693e+01 -7.542521041e-01 1.570348083e+00 1.651541984e+00 7.932502542e-01 1.651541984e+00 7.932502542e-01 -7.542521041e-01 1.570348083e+00
1.421934091e+01 -6.751554231e-01 1.613498072e+00 1.705639569e+00 7.137112988e-01 1.705639569e+00 7.137112988e-01 -6.751554231e-01 1.613498072e+00
1.432389489e+01 -5.923771379e-01 1.652997904e+00 1.756245272e+00 6.293774152e-01 1.756245272e+00 6.293774152e-01 -5.923771379e-01 1.652997904e+00
1.442844886e+01 -5.061391006e-01 1.688365869e+00 1.802909978e+00 5.404771864e-01 1.802909978e+00 5.404771864e-01 -5.061391006e-01 1.688365869e+00
1.453300284e+01 -4.167464734e-01 1.719144462e+00 1.845200219e+00 4.473042847e-01 1.845200219e+00 4.473042847e-01 -4.167464734e-01 1.719144462e+00
1.463755682e+01 -3.245839814e-01 1.744914628e+00 1.882709057e+00 3.502161032e-01 1.882709057e+00 3.502161032e-01 -3.245839814e-01 1.744914628e+00
1.474211080e+01 -2.301090096e-01 1.765309665e+00 1.915066923e+00 2.496299441e-01 1.915066923e+00 2.496299441e-01 -2.301090096e-01 1.765309665e+00
1.484666477e+01 -1.338415642e-01 1.780027976e+00 1.941951839e+00 1.460167341e-01 1.941951839e+00 1.460167341e-01 -1.338415642e-01 1.780027976e+00
1.495121875e+01 -3.635136709e-02 1.788843889e+00 1.963098388e+00 3.989241909e-02 1.963098388e+00 3.989241909e-02 -3.635136709e-02 1.788843889e+00
