! rfx Touchstone export
! 2-port, 170 frequencies
! rfx gallery case multilayer_fresnel
! tier E5; quick_smoke=False
# GHz S RI R 50
3.032065341e+00 -5.677860216e-01 -1.404499614e-01 1.947090380e-01 -7.871349265e-01 1.947090380e-01 -7.871349265e-01 -5.677860216e-01 -1.404499614e-01
3.084342330e+00 -5.724674438e-01 -1.306854996e-01 1.800202559e-01 -7.885781976e-01 1.800202559e-01 -7.885781976e-01 -5.724674438e-01 -1.306854996e-01
3.136619318e+00 -5.767641229e-01 -1.207986920e-01 1.654360672e-01 -7.898892496e-01 1.654360672e-01 -7.898892496e-01 -5.767641229e-01 -1.207986920e-01
3.188896307e+00 -5.806798838e-01 -1.108022011e-01 1.509489929e-01 -7.910767370e-01 1.509489929e-01 -7.910767370e-01 -5.806798838e-01 -1.108022011e-01
3.241173295e+00 -5.842187157e-01 -1.007081076e-01 1.365511902e-01 -7.921483467e-01 1.365511902e-01 -7.921483467e-01 -5.842187157e-01 -1.007081076e-01
3.293450284e+00 -5.873846897e-01 -9.052792946e-02 1.222345085e-01 -7.931108028e-01 1.222345085e-01 -7.931108028e-01 -5.873846897e-01 -9.052792946e-02
3.345727273e+00 -5.901818815e-01 -8.027264471e-02 1.079905427e-01 -7.939698752e-01 1.079905427e-01 -7.939698752e-01 -5.901818815e-01 -8.027264471e-02
3.398004261e+00 -5.926142979e-01 -6.995272105e-02 9.381068533e-02 -7.947303920e-01 9.381068533e-02 -7.947303920e-01 -5.926142979e-01 -6.995272105e-02
3.450281250e+00 -5.946858079e-01 -5.957814973e-02 7.968617490e-02 -7.953962571e-01 7.968617490e-02 -7.953962571e-01 -5.946858079e-01 -5.957814973e-02
3.502558239e+00 -5.964000795e-01 -4.915848423e-02 6.560814311e-02 -7.959704693e-01 6.560814311e-02 -7.959704693e-01 -5.964000795e-01 -4.915848423e-02
3.554835227e+00 -5.977605226e-01 -3.870288323e-02 5.156765852e-02 -7.964551458e-01 5.156765852e-02 -7.964551458e-01 -5.977605226e-01 -3.870288323e-02
3.607112216e+00 -5.987702376e-01 -2.822015726e-02 3.755576778e-02 -7.968515478e-01 3.755576778e-02 -7.968515478e-01 -5.987702376e-01 -2.822015726e-02
3.659389205e+00 -5.994319704e-01 -1.771881888e-02 2.356353392e-02 -7.971601078e-01 2.356353392e-02 -7.971601078e-01 -5.994319704e-01 -1.771881888e-02
3.711666193e+00 -5.997480750e-01 -7.207135614e-03 9.582071781e-03 -7.973804592e-01 9.582071781e-03 -7.973804592e-01 -5.997480750e-01 -7.207135614e-03
3.763943182e+00 -5.997204822e-01 3.306814552e-03 -4.397419467e-03 -7.975114666e-01 -4.397419467e-03 -7.975114666e-01 -5.997204822e-01 3.306814552e-03
3.816220170e+00 -5.993506760e-01 1.381508578e-02 -1.838362660e-02 -7.975512571e-01 -1.838362660e-02 -7.975512571e-01 -5.993506760e-01 1.381508578e-02
3.868497159e+00 -5.986396770e-01 2.430980547e-02 -3.238509537e-02 -7.974972510e-01 -3.238509537e-02 -7.974972510e-01 -5.986396770e-01 2.430980547e-02
3.920774148e+00 -5.975880335e-01 3.478311436e-02 -4.641020617e-02 -7.973461936e-01 -4.641020617e-02 -7.973461936e-01 -5.975880335e-01 3.478311436e-02
3.973051136e+00 -5.961958194e-01 4.522710613e-02 -6.046715210e-02 -7.970941850e-01 -6.046715210e-02 -7.970941850e-01 -5.961958194e-01 4.522710613e-02
4.025328125e+00 -5.944626403e-01 5.563376685e-02 -7.456391927e-02 -7.967367092e-01 -7.456391927e-02 -7.967367092e-01 -5.944626403e-01 5.563376685e-02
4.077605114e+00 -5.923876458e-01 6.599491501e-02 -8.870826908e-02 -7.962686621e-01 -8.870826908e-02 -7.962686621e-01 -5.923876458e-01 6.599491501e-02
4.129882102e+00 -5.899695501e-01 7.630214225e-02 -1.029077222e-01 -7.956843774e-01 -1.029077222e-01 -7.956843774e-01 -5.899695501e-01 7.630214225e-02
4.182159091e+00 -5.872066588e-01 8.654675559e-02 -1.171695438e-01 -7.949776494e-01 -1.171695438e-01 -7.949776494e-01 -5.872066588e-01 8.654675559e-02
4.234436080e+00 -5.840969034e-01 9.671972131e-02 -1.315007301e-01 -7.941417551e-01 -1.315007301e-01 -7.941417551e-01 -5.840969034e-01 9.671972131e-02
4.286713068e+00 -5.806378821e-01 1.068116111e-01 -1.459079950e-01 -7.931694722e-01 -1.459079950e-01 -7.931694722e-01 -5.806378821e-01 1.068116111e-01
4.338990057e+00 -5.768269071e-01 1.168125509e-01 -1.603977577e-01 -7.920530949e-01 -1.603977577e-01 -7.920530949e-01 -5.768269071e-01 1.168125509e-01
4.391267045e+00 -5.726610588e-01 1.267121729e-01 -1.749761294e-01 -7.907844469e-01 -1.749761294e-01 -7.907844469e-01 -5.726610588e-01 1.267121729e-01
4.443544034e+00 -5.681372453e-01 1.364995704e-01 -1.896488999e-01 -7.893548913e-01 -1.896488999e-01 -7.893548913e-01 -5.681372453e-01 1.364995704e-01
4.495821023e+00 -5.632522690e-01 1.461632581e-01 -2.044215230e-01 -7.877553373e-01 -2.044215230e-01 -7.877553373e-01 -5.632522690e-01 1.461632581e-01
4.548098011e+00 -5.580028977e-01 1.556911347e-01 -2.192991003e-01 -7.859762451e-01 -2.192991003e-01 -7.859762451e-01 -5.580028977e-01 1.556911347e-01
4.600375000e+00 -5.523859415e-01 1.650704521e-01 -2.342863634e-01 -7.840076271e-01 -2.342863634e-01 -7.840076271e-01 -5.523859415e-01 1.650704521e-01
4.652651989e+00 -5.463983348e-01 1.742877886e-01 -2.493876536e-01 -7.818390476e-01 -2.493876536e-01 -7.818390476e-01 -5.463983348e-01 1.742877886e-01
4.704928977e+00 -5.400372231e-01 1.833290285e-01 -2.646068990e-01 -7.794596199e-01 -2.646068990e-01 -7.794596199e-01 -5.400372231e-01 1.833290285e-01
4.757205966e+00 -5.333000535e-01 1.921793471e-01 -2.799475881e-01 -7.768580024e-01 -2.799475881e-01 -7.768580024e-01 -5.333000535e-01 1.921793471e-01
4.809482955e+00 -5.261846702e-01 2.008232025e-01 -2.954127411e-01 -7.740223928e-01 -2.954127411e-01 -7.740223928e-01 -5.261846702e-01 2.008232025e-01
4.861759943e+00 -5.186894124e-01 2.092443343e-01 -3.110048758e-01 -7.709405220e-01 -3.110048758e-01 -7.709405220e-01 -5.186894124e-01 2.092443343e-01
4.914036932e+00 -5.108132156e-01 2.174257692e-01 -3.267259712e-01 -7.675996483e-01 -3.267259712e-01 -7.675996483e-01 -5.108132156e-01 2.174257692e-01
4.966313920e+00 -5.025557158e-01 2.253498352e-01 -3.425774259e-01 -7.639865514e-01 -3.425774259e-01 -7.639865514e-01 -5.025557158e-01 2.253498352e-01
5.018590909e+00 -4.939173547e-01 2.329981826e-01 -3.585600122e-01 -7.600875284e-01 -3.585600122e-01 -7.600875284e-01 -4.939173547e-01 2.329981826e-01
5.070867898e+00 -4.848994868e-01 2.403518143e-01 -3.746738267e-01 -7.558883914e-01 -3.746738267e-01 -7.558883914e-01 -4.848994868e-01 2.403518143e-01
5.123144886e+00 -4.755044864e-01 2.473911245e-01 -3.909182352e-01 -7.513744682e-01 -3.909182352e-01 -7.513744682e-01 -4.755044864e-01 2.473911245e-01
5.175421875e+00 -4.657358542e-01 2.540959465e-01 -4.072918142e-01 -7.465306062e-01 -4.072918142e-01 -7.465306062e-01 -4.657358542e-01 2.540959465e-01
5.227698864e+00 -4.555983236e-01 2.604456097e-01 -4.237922882e-01 -7.413411818e-01 -4.237922882e-01 -7.413411818e-01 -4.555983236e-01 2.604456097e-01
5.279975852e+00 -4.450979634e-01 2.664190057e-01 -4.404164626e-01 -7.357901139e-01 -4.404164626e-01 -7.357901139e-01 -4.450979634e-01 2.664190057e-01
5.332252841e+00 -4.342422786e-01 2.719946648e-01 -4.571601535e-01 -7.298608850e-01 -4.571601535e-01 -7.298608850e-01 -4.342422786e-01 2.719946648e-01
5.384529830e+00 -4.230403060e-01 2.771508406e-01 -4.740181144e-01 -7.235365686e-01 -4.740181144e-01 -7.235365686e-01 -4.230403060e-01 2.771508406e-01
5.436806818e+00 -4.115027055e-01 2.818656055e-01 -4.909839603e-01 -7.167998651e-01 -4.909839603e-01 -7.167998651e-01 -4.115027055e-01 2.818656055e-01
5.489083807e+00 -3.996418442e-01 2.861169547e-01 -5.080500898e-01 -7.096331463e-01 -5.080500898e-01 -7.096331463e-01 -3.996418442e-01 2.861169547e-01
5.541360795e+00 -3.874718729e-01 2.898829194e-01 -5.252076071e-01 -7.020185100e-01 -5.252076071e-01 -7.020185100e-01 -3.874718729e-01 2.898829194e-01
5.593637784e+00 -3.750087949e-01 2.931416890e-01 -5.424462429e-01 -6.939378447e-01 -5.424462429e-01 -6.939378447e-01 -3.750087949e-01 2.931416890e-01
5.645914773e+00 -3.622705234e-01 2.958717412e-01 -5.597542771e-01 -6.853729057e-01 -5.597542771e-01 -6.853729057e-01 -3.622705234e-01 2.958717412e-01
5.698191761e+00 -3.492769293e-01 2.980519806e-01 -5.771184631e-01 -6.763054023e-01 -5.771184631e-01 -6.763054023e-01 -3.492769293e-01 2.980519806e-01
5.750468750e+00 -3.360498754e-01 2.996618838e-01 -5.945239563e-01 -6.667170977e-01 -5.945239563e-01 -6.667170977e-01 -3.360498754e-01 2.996618838e-01
5.802745739e+00 -3.226132390e-01 3.006816512e-01 -6.119542466e-01 -6.565899211e-01 -6.119542466e-01 -6.565899211e-01 -3.226132390e-01 3.006816512e-01
5.855022727e+00 -3.089929187e-01 3.010923644e-01 -6.293910980e-01 -6.459060916e-01 -6.293910980e-01 -6.459060916e-01 -3.089929187e-01 3.010923644e-01
5.907299716e+00 -2.952168267e-01 3.008761485e-01 -6.468144956e-01 -6.346482559e-01 -6.468144956e-01 -6.346482559e-01 -2.952168267e-01 3.008761485e-01
5.959576705e+00 -2.813148656e-01 3.000163373e-01 -6.642026025e-01 -6.227996367e-01 -6.642026025e-01 -6.227996367e-01 -2.813148656e-01 3.000163373e-01
6.011853693e+00 -2.673188868e-01 2.984976422e-01 -6.815317280e-01 -6.103441941e-01 -6.815317280e-01 -6.103441941e-01 -2.673188868e-01 2.984976422e-01
6.064130682e+00 -2.532626330e-01 2.963063218e-01 -6.987763083e-01 -5.972667971e-01 -6.987763083e-01 -5.972667971e-01 -2.532626330e-01 2.963063218e-01
6.116407670e+00 -2.391816614e-01 2.934303511e-01 -7.159089026e-01 -5.835534059e-01 -7.159089026e-01 -5.835534059e-01 -2.391816614e-01 2.934303511e-01
6.168684659e+00 -2.251132490e-01 2.898595909e-01 -7.329002051e-01 -5.691912621e-01 -7.329002051e-01 -5.691912621e-01 -2.251132490e-01 2.898595909e-01
6.220961648e+00 -2.110962787e-01 2.855859529e-01 -7.497190756e-01 -5.541690875e-01 -7.497190756e-01 -5.541690875e-01 -2.110962787e-01 2.855859529e-01
6.273238636e+00 -1.971711062e-01 2.806035613e-01 -7.663325892e-01 -5.384772868e-01 -7.663325892e-01 -5.384772868e-01 -1.971711062e-01 2.806035613e-01
6.325515625e+00 -1.833794084e-01 2.749089083e-01 -7.827061077e-01 -5.221081552e-01 -7.827061077e-01 -5.221081552e-01 -1.833794084e-01 2.749089083e-01
6.377792614e+00 -1.697640120e-01 2.685010023e-01 -7.988033727e-01 -5.050560860e-01 -7.988033727e-01 -5.050560860e-01 -1.697640120e-01 2.685010023e-01
6.430069602e+00 -1.563687039e-01 2.613815057e-01 -8.145866225e-01 -4.873177773e-01 -8.145866225e-01 -4.873177773e-01 -1.563687039e-01 2.613815057e-01
6.482346591e+00 -1.432380237e-01 2.535548624e-01 -8.300167327e-01 -4.688924336e-01 -8.300167327e-01 -4.688924336e-01 -1.432380237e-01 2.535548624e-01
6.534623580e+00 -1.304170381e-01 2.450284111e-01 -8.450533818e-01 -4.497819602e-01 -8.450533818e-01 -4.497819602e-01 -1.304170381e-01 2.450284111e-01
6.586900568e+00 -1.179510993e-01 2.358124844e-01 -8.596552404e-01 -4.299911469e-01 -8.596552404e-01 -4.299911469e-01 -1.179510993e-01 2.358124844e-01
6.639177557e+00 -1.058855885e-01 2.259204894e-01 -8.737801860e-01 -4.095278364e-01 -8.737801860e-01 -4.095278364e-01 -1.058855885e-01 2.259204894e-01
6.691454545e+00 -9.426564535e-02 2.153689701e-01 -8.873855397e-01 -3.884030765e-01 -8.873855397e-01 -3.884030765e-01 -9.426564535e-02 2.153689701e-01
6.743731534e+00 -8.313588565e-02 2.041776483e-01 -9.004283262e-01 -3.666312497e-01 -9.004283262e-01 -3.666312497e-01 -8.313588565e-02 2.041776483e-01
6.796008523e+00 -7.254010978e-02 1.923694423e-01 -9.128655534e-01 -3.442301785e-01 -9.128655534e-01 -3.442301785e-01 -7.254010978e-02 1.923694423e-01
6.848285511e+00 -6.252100370e-02 1.799704613e-01 -9.246545106e-01 -3.212212030e-01 -9.246545106e-01 -3.212212030e-01 -6.252100370e-02 1.799704613e-01
6.900562500e+00 -5.311983575e-02 1.670099760e-01 -9.357530818e-01 -2.976292268e-01 -9.357530818e-01 -2.976292268e-01 -5.311983575e-02 1.670099760e-01
6.952839489e+00 -4.437615233e-02 1.535203645e-01 -9.461200715e-01 -2.734827301e-01 -9.461200715e-01 -2.734827301e-01 -4.437615233e-02 1.535203645e-01
7.005116477e+00 -3.632747576e-02 1.395370378e-01 -9.557155384e-01 -2.488137458e-01 -9.557155384e-01 -2.488137458e-01 -3.632747576e-02 1.395370378e-01
7.057393466e+00 -2.900900814e-02 1.250983491e-01 -9.645011346e-01 -2.236577979e-01 -9.645011346e-01 -2.236577979e-01 -2.900900814e-02 1.250983491e-01
7.109670455e+00 -2.245334529e-02 1.102455037e-01 -9.724404433e-01 -1.980538011e-01 -9.724404433e-01 -1.980538011e-01 -2.245334529e-02 1.102455037e-01
7.161947443e+00 -1.669020494e-02 9.502250520e-02 -9.794993140e-01 -1.720439201e-01 -9.794993140e-01 -1.720439201e-01 -1.669020494e-02 9.502250520e-02
7.214224432e+00 -1.174617451e-02 7.947623222e-02 -9.856461863e-01 -1.456733892e-01 -9.856461863e-01 -1.456733892e-01 -1.174617451e-02 7.947623222e-02
7.266501420e+00 -7.644485892e-03 6.365693380e-02 -9.908524015e-01 -1.189902930e-01 -9.908524015e-01 -1.189902930e-01 -7.644485892e-03 6.365693380e-02
7.318778409e+00 -4.404834212e-03 4.762021550e-02 -9.950924940e-01 -9.204530924e-02 -9.950924940e-01 -9.204530924e-02 -4.404834212e-03 4.762021550e-02
7.371055398e+00 -2.043311423e-03 3.143603196e-02 -9.983444600e-01 -6.489141636e-02 -9.983444600e-01 -6.489141636e-02 -2.043311423e-03 3.143603196e-02
7.423332386e+00 -5.730862995e-04 1.525731700e-02 -1.000589998e+00 -3.758356855e-02 -1.000589998e+00 -3.758356855e-02 -5.730862995e-04 1.525731700e-02
7.475609375e+00 -3.751216213e-05 3.692176703e-03 -1.001814720e+00 -1.017834172e-02 -1.001814720e+00 -1.017834172e-02 -3.751216213e-05 3.692176703e-03
7.527886364e+00 -3.159077776e-04 -1.833279602e-02 -1.002008322e+00 1.726644543e-02 -1.002008322e+00 1.726644543e-02 -3.159077776e-04 -1.833279602e-02
7.580163352e+00 -1.545377900e-03 -3.461857411e-02 -1.001164725e+00 4.469213073e-02 -1.001164725e+00 4.469213073e-02 -1.545377900e-03 -3.461857411e-02
7.632440341e+00 -3.670255220e-03 -5.091115743e-02 -9.992821689e-01 7.203962317e-02 -9.992821689e-01 7.203962317e-02 -3.670255220e-03 -5.091115743e-02
7.684717330e+00 -6.682889088e-03 -6.708913635e-02 -9.963632705e-01 9.924982778e-02 -9.963632705e-01 9.924982778e-02 -6.682889088e-03 -6.708913635e-02
7.736994318e+00 -1.057089034e-02 -8.308547364e-02 -9.924150345e-01 1.262640753e-01 -9.924150345e-01 1.262640753e-01 -1.057089034e-02 -8.308547364e-02
7.789271307e+00 -1.531783240e-02 -9.884411046e-02 -9.874488267e-01 1.530245511e-01 -9.874488267e-01 1.530245511e-01 -1.531783240e-02 -9.884411046e-02
7.841548295e+00 -2.090349190e-02 -1.143134015e-01 -9.814803036e-01 1.794747187e-01 -9.814803036e-01 1.794747187e-01 -2.090349190e-02 -1.143134015e-01
7.893825284e+00 -2.730405418e-02 -1.294446178e-01 -9.745293030e-01 2.055597316e-01 -9.745293030e-01 2.055597316e-01 -2.730405418e-02 -1.294446178e-01
7.946102273e+00 -3.449233244e-02 -1.441916057e-01 -9.666196958e-01 2.312268299e-01 -9.666196958e-01 2.312268299e-01 -3.449233244e-02 -1.441916057e-01
7.998379261e+00 -4.243800739e-02 -1.585107820e-01 -9.577792033e-01 2.564257168e-01 -9.577792033e-01 2.564257168e-01 -4.243800739e-02 -1.585107820e-01
8.050656250e+00 -5.110788640e-02 -1.723612341e-01 -9.480391810e-01 2.811089106e-01 -9.480391810e-01 2.811089106e-01 -5.110788640e-02 -1.723612341e-01
8.102933239e+00 -6.046617888e-02 -1.857048461e-01 -9.374343742e-01 3.052320698e-01 -9.374343742e-01 3.052320698e-01 -6.046617888e-02 -1.857048461e-01
8.155210227e+00 -7.047478382e-02 -1.985064192e-01 -9.260026474e-01 3.287542875e-01 -9.260026474e-01 3.287542875e-01 -7.047478382e-02 -1.985064192e-01
8.207487216e+00 -8.109358549e-02 -2.107337732e-01 -9.137846913e-01 3.516383532e-01 -9.137846913e-01 3.516383532e-01 -8.109358549e-02 -2.107337732e-01
8.259764205e+00 -9.228075292e-02 -2.223578237e-01 -9.008237130e-01 3.738509808e-01 -9.008237130e-01 3.738509808e-01 -9.228075292e-02 -2.223578237e-01
8.312041193e+00 -1.039930396e-01 -2.333526317e-01 -8.871651102e-01 3.953629997e-01 -8.871651102e-01 3.953629997e-01 -1.039930396e-01 -2.333526317e-01
8.364318182e+00 -1.161860795e-01 -2.436954263e-01 -8.728561358e-01 4.161495108e-01 -8.728561358e-01 4.161495108e-01 -1.161860795e-01 -2.436954263e-01
8.416595170e+00 -1.288146765e-01 -2.533666017e-01 -8.579455540e-01 4.361900041e-01 -8.579455540e-01 4.361900041e-01 -1.288146765e-01 -2.533666017e-01
8.468872159e+00 -1.418330842e-01 -2.623496891e-01 -8.424832934e-01 4.554684411e-01 -8.424832934e-01 4.554684411e-01 -1.418330842e-01 -2.623496891e-01
8.521149148e+00 -1.551952743e-01 -2.706313068e-01 -8.265200979e-01 4.739732989e-01 -8.265200979e-01 4.739732989e-01 -1.551952743e-01 -2.706313068e-01
8.573426136e+00 -1.688551912e-01 -2.782010907e-01 -8.101071794e-01 4.916975785e-01 -8.101071794e-01 4.916975785e-01 -1.688551912e-01 -2.782010907e-01
8.625703125e+00 -1.827669925e-01 -2.850516071e-01 -7.932958745e-01 5.086387783e-01 -7.932958745e-01 5.086387783e-01 -1.827669925e-01 -2.850516071e-01
8.677980114e+00 -1.968852735e-01 -2.911782514e-01 -7.761373067e-01 5.247988309e-01 -7.761373067e-01 5.247988309e-01 -1.968852735e-01 -2.911782514e-01
8.730257102e+00 -2.111652758e-01 -2.965791353e-01 -7.586820564e-01 5.401840070e-01 -7.586820564e-01 5.401840070e-01 -2.111652758e-01 -2.965791353e-01
8.782534091e+00 -2.255630802e-01 -3.012549636e-01 -7.409798410e-01 5.548047850e-01 -7.409798410e-01 5.548047850e-01 -2.255630802e-01 -3.012549636e-01
8.834811080e+00 -2.400357833e-01 -3.052089040e-01 -7.230792050e-01 5.686756879e-01 -7.230792050e-01 5.686756879e-01 -2.400357833e-01 -3.052089040e-01
8.887088068e+00 -2.545416596e-01 -3.084464519e-01 -7.050272226e-01 5.818150872e-01 -7.050272226e-01 5.818150872e-01 -2.545416596e-01 -3.084464519e-01
8.939365057e+00 -2.690403073e-01 -3.109752910e-01 -6.868692141e-01 5.942449763e-01 -6.868692141e-01 5.942449763e-01 -2.690403073e-01 -3.109752910e-01
8.991642045e+00 -2.834927814e-01 -3.128051513e-01 -6.686484764e-01 6.059907120e-01 -6.686484764e-01 6.059907120e-01 -2.834927814e-01 -3.128051513e-01
9.043919034e+00 -2.978617121e-01 -3.139476666e-01 -6.504060304e-01 6.170807253e-01 -6.504060304e-01 6.170807253e-01 -2.978617121e-01 -3.139476666e-01
9.096196023e+00 -3.121114105e-01 -3.144162303e-01 -6.321803853e-01 6.275462037e-01 -6.321803853e-01 6.275462037e-01 -3.121114105e-01 -3.144162303e-01
9.148473011e+00 -3.262079616e-01 -3.142258531e-01 -6.140073221e-01 6.374207436e-01 -6.140073221e-01 6.374207436e-01 -3.262079616e-01 -3.142258531e-01
9.200750000e+00 -3.401193054e-01 -3.133930191e-01 -5.959196977e-01 6.467399760e-01 -5.959196977e-01 6.467399760e-01 -3.401193054e-01 -3.133930191e-01
9.253026989e+00 -3.538153060e-01 -3.119355450e-01 -5.779472726e-01 6.555411668e-01 -5.779472726e-01 6.555411668e-01 -3.538153060e-01 -3.119355450e-01
9.305303977e+00 -3.672678085e-01 -3.098724383e-01 -5.601165620e-01 6.638627924e-01 -5.601165620e-01 6.638627924e-01 -3.672678085e-01 -3.098724383e-01
9.357580966e+00 -3.804506844e-01 -3.072237585e-01 -5.424507156e-01 6.717440962e-01 -5.424507156e-01 6.717440962e-01 -3.804506844e-01 -3.072237585e-01
9.409857955e+00 -3.933398659e-01 -3.040104782e-01 -5.249694254e-01 6.792246261e-01 -5.249694254e-01 6.792246261e-01 -3.933398659e-01 -3.040104782e-01
9.462134943e+00 -4.059133669e-01 -3.002543465e-01 -5.076888667e-01 6.863437603e-01 -5.076888667e-01 6.863437603e-01 -4.059133669e-01 -3.002543465e-01
9.514411932e+00 -4.181512932e-01 -2.959777539e-01 -4.906216726e-01 6.931402247e-01 -4.906216726e-01 6.931402247e-01 -4.181512932e-01 -2.959777539e-01
9.566688920e+00 -4.300358398e-01 -2.912035995e-01 -4.737769452e-01 6.996516075e-01 -4.737769452e-01 6.996516075e-01 -4.300358398e-01 -2.912035995e-01
9.618965909e+00 -4.415512767e-01 -2.859551600e-01 -4.571603051e-01 7.059138795e-01 -4.571603051e-01 7.059138795e-01 -4.415512767e-01 -2.859551600e-01
9.671242898e+00 -4.526839217e-01 -2.802559624e-01 -4.407739808e-01 7.119609249e-01 -4.407739808e-01 7.119609249e-01 -4.526839217e-01 -2.802559624e-01
9.723519886e+00 -4.634221024e-01 -2.741296599e-01 -4.246169382e-01 7.178240920e-01 -4.246169382e-01 7.178240920e-01 -4.634221024e-01 -2.741296599e-01
9.775796875e+00 -4.737561061e-01 -2.675999120e-01 -4.086850510e-01 7.235317715e-01 -4.086850510e-01 7.235317715e-01 -4.737561061e-01 -2.675999120e-01
9.828073864e+00 -4.836781189e-01 -2.606902694e-01 -3.929713106e-01 7.291090102e-01 -3.929713106e-01 7.291090102e-01 -4.836781189e-01 -2.606902694e-01
9.880350852e+00 -4.931821550e-01 -2.534240652e-01 -3.774660742e-01 7.345771672e-01 -3.774660742e-01 7.345771672e-01 -4.931821550e-01 -2.534240652e-01
